T670C 000:005.271   SEGGER J-Link V9.72 Log File
T670C 000:005.390   DLL Compiled: Aug 26 2026 14:33:17
T670C 000:005.408   Logging started @ 2026-10-06 10:15
T670C 000:005.426   Process: D:\Program Files\Keil_v5.36\UV4\UV4.exe
T670C 000:005.451 - 5.443ms 
T670C 000:005.475 JLINK_SetWarnOutHandler(...)
T670C 000:005.493 - 0.019ms 
T670C 000:005.514 JLINK_OpenEx(...)
T670C 000:009.233   Firmware: J-Link V9 compiled Dec 13 2022 11:14:50
T670C 000:011.220   Firmware: J-Link V9 compiled Dec 13 2022 11:14:50
T670C 000:011.386   Decompressing FW timestamp took 112 us
T670C 000:019.440   Hardware: V9.70
T670C 000:019.504   S/N: 69730369
T670C 000:019.543   OEM: SEGGER
T670C 000:019.584   Feature(s): RDI, GDB, FlashDL, FlashBP, JFlash
T670C 000:021.743   Bootloader: (FW returned invalid version)
T670C 000:023.930   TELNET listener socket opened on port 19021
T670C 000:024.111   WEBSRV WEBSRV_Init(): Starting webserver thread(s)
T670C 000:024.337   WEBSRV Webserver running on local port 19080
T670C 000:024.530   Looking for J-Link GUI Server exe at: D:\Program Files\Keil_v5.36\ARM\Segger\JLinkGUIServer.exe
T670C 000:024.878   Looking for J-Link GUI Server exe at: C:\Program Files\SEGGER\JLink_V972\JLinkGUIServer.exe
T670C 000:025.036   Forking J-Link GUI Server: C:\Program Files\SEGGER\JLink_V972\JLinkGUIServer.exe
T670C 000:032.730   J-Link GUI Server info: "J-Link GUI server V9.72 "
T670C 000:033.073 - 27.537ms returns "O.K."
T670C 000:033.131 JLINK_GetEmuCaps()
T670C 000:033.157 - 0.023ms returns 0xB9FF7BBF
T670C 000:033.180 JLINK_TIF_GetAvailable(...)
T670C 000:033.867 - 0.686ms 
T670C 000:033.906 JLINK_SetErrorOutHandler(...)
T670C 000:033.926 - 0.021ms 
T670C 000:034.000 JLINK_ExecCommand("ProjectFile = "D:\0-GanXing\0-huixin\4-HX_DT_ECU\0-Code_Project\HX_ECU_PDEAL_AB_V1006\G32A10xx_Uds_Bootloader_V0.00.01_261006\Project\MDK\G32A1085_CAN_SDK\UDS_G32A1085_Bootloader\JLinkSettings.ini"", ...). 
T670C 000:047.314   Ref file found at: D:\Program Files\Keil_v5.36\ARM\Segger\JLinkDevices.ref
T670C 000:047.507   REF file references invalid XML file: C:\Program Files\SEGGER\JLink_V972\JLinkDevices.xml
T670C 000:048.322   Flash bank @ 0x08000000: SFL: Parsing sectorization info from ELF file
T670C 000:048.359     FlashDevice.SectorInfo[0]: .SectorSize = 0x00000200, .SectorStartAddr = 0x00000000
T670C 000:048.392   FlashBank @0x08000000: Sectorization info from SFL ELF file ignored because sectorization override from DLL / XML file is active.
T670C 000:048.468   Flash bank @ 0x08040000: SFL: Parsing sectorization info from ELF file
T670C 000:048.495     FlashDevice.SectorInfo[0]: .SectorSize = 0x00000200, .SectorStartAddr = 0x00000000
T670C 000:048.521   FlashBank @0x08040000: Sectorization info from SFL ELF file ignored because sectorization override from DLL / XML file is active.
T670C 000:048.563   Flash bank @ 0x1FFFF800: SFL: Parsing sectorization info from ELF file
T670C 000:048.593     FlashDevice.SectorInfo[0]: .SectorSize = 0x00000010, .SectorStartAddr = 0x00000000
T670C 000:052.452   Device "G32A1085MAT0" selected.
T670C 000:053.086 - 19.092ms returns 0x00
T670C 000:056.143 JLINK_ExecCommand("Device = G32A1085MAT0MLHx", ...). 
T670C 000:056.359   Flash bank @ 0x08000000: SFL: Parsing sectorization info from ELF file
T670C 000:056.389     FlashDevice.SectorInfo[0]: .SectorSize = 0x00000200, .SectorStartAddr = 0x00000000
T670C 000:056.415   FlashBank @0x08000000: Sectorization info from SFL ELF file ignored because sectorization override from DLL / XML file is active.
T670C 000:056.462   Flash bank @ 0x08040000: SFL: Parsing sectorization info from ELF file
T670C 000:056.488     FlashDevice.SectorInfo[0]: .SectorSize = 0x00000200, .SectorStartAddr = 0x00000000
T670C 000:056.514   FlashBank @0x08040000: Sectorization info from SFL ELF file ignored because sectorization override from DLL / XML file is active.
T670C 000:056.549   Flash bank @ 0x1FFFF800: SFL: Parsing sectorization info from ELF file
T670C 000:056.574     FlashDevice.SectorInfo[0]: .SectorSize = 0x00000010, .SectorStartAddr = 0x00000000
T670C 000:059.090   Device "G32A1085MAT0" selected.
T670C 000:059.626 - 3.482ms returns 0x00
T670C 000:059.722   ERROR: Unknown command
T670C 000:059.757 JLINK_GetHardwareVersion()
T670C 000:059.780 - 0.018ms returns 97000
T670C 000:059.800 JLINK_GetDLLVersion()
T670C 000:059.817 - 0.017ms returns 97200
T670C 000:059.836 JLINK_GetOEMString(...)
T670C 000:059.854 JLINK_GetFirmwareString(...)
T670C 000:059.872 - 0.017ms 
T670C 000:067.866 JLINK_GetDLLVersion()
T670C 000:067.916 - 0.048ms returns 97200
T670C 000:067.935 JLINK_GetCompileDateTime()
T670C 000:067.953 - 0.017ms 
T670C 000:070.393 JLINK_GetFirmwareString(...)
T670C 000:070.445 - 0.052ms 
T670C 000:072.770 JLINK_GetHardwareVersion()
T670C 000:072.810 - 0.039ms returns 97000
T670C 000:074.883 JLINK_GetSN()
T670C 000:074.913 - 0.029ms returns 69730369
T670C 000:076.841 JLINK_GetOEMString(...)
T670C 000:081.648 JLINK_TIF_Select(JLINKARM_TIF_SWD)
T670C 000:084.294 - 2.646ms returns 0x00
T670C 000:084.381 JLINK_HasError()
T670C 000:084.429 JLINK_SetSpeed(2000)
T670C 000:085.043 - 0.617ms 
T670C 000:085.073 JLINK_GetId()
T670C 000:087.951   InitTarget() start
T670C 000:087.988    J-Link Script File: Executing InitTarget()
T670C 000:093.100   Check if Flash is read protected.
T670C 000:100.920   InitTarget() end - Took 10.4ms
T670C 000:105.478   Found SW-DP with ID 0x0BC11477
T670C 000:109.159   Old FW that does not support reading DPIDR via DAP jobs
T670C 000:116.845   DPv0 detected
T670C 000:119.866   CoreSight SoC-400 or earlier
T670C 000:121.950   Scanning AP map to find all available APs
T670C 000:126.098   AP[1]: Stopped AP scan as end of AP map has been reached
T670C 000:128.317   AP[0]: AHB-AP (IDR: 0x04770031, ADDR: 0x00000000)
T670C 000:130.795   Iterating through AP map to find AHB-AP to use
T670C 000:136.312   AP[0]: Core found
T670C 000:138.929   AP[0]: AHB-AP ROM base: 0xE00FF000
T670C 000:142.755   CPUID register: 0x410CC601. Implementer code: 0x41 (ARM)
T670C 000:145.382   Found Cortex-M0 r0p1, Little endian.
T670C 000:146.717   -- Max. mem block: 0x00010BB0
T670C 000:147.999   CPU_ReadMem(4 bytes @ 0xE000EDF0)
T670C 000:148.905   CPU_WriteMem(4 bytes @ 0xE000EDF0)
T670C 000:149.802   CPU_ReadMem(4 bytes @ 0xE0002000)
T670C 000:153.093   FPUnit: 4 code (BP) slots and 0 literal slots
T670C 000:153.132   CPU_ReadMem(4 bytes @ 0xE000EDFC)
T670C 000:153.907   CPU_WriteMem(4 bytes @ 0xE000EDFC)
T670C 000:154.795   CPU_ReadMem(4 bytes @ 0xE0001000)
T670C 000:155.652   CPU_WriteMem(4 bytes @ 0xE0001000)
T670C 000:158.859   CoreSight components:
T670C 000:161.128   ROMTbl[0] @ E00FF000
T670C 000:161.180   CPU_ReadMem(64 bytes @ 0xE00FF000)
T670C 000:162.485   CPU_ReadMem(32 bytes @ 0xE000EFE0)
T670C 000:165.903   [0][0]: E000E000 CID B105E00D PID 000BB008 SCS
T670C 000:165.940   CPU_ReadMem(32 bytes @ 0xE0001FE0)
T670C 000:169.762   [0][1]: E0001000 CID B105E00D PID 000BB00A DWT
T670C 000:169.808   CPU_ReadMem(32 bytes @ 0xE0002FE0)
T670C 000:175.656   [0][2]: E0002000 CID B105E00D PID 000BB00B FPB
T670C 000:176.411 - 91.337ms returns 0x0BC11477
T670C 000:176.463 JLINK_GetDLLVersion()
T670C 000:176.489 - 0.026ms returns 97200
T670C 000:176.562 JLINK_CORE_GetFound()
T670C 000:176.590 - 0.028ms returns 0x60000FF
T670C 000:176.617 JLINK_GetDebugInfo(0x100 = JLINKARM_ROM_TABLE_ADDR_INDEX)
T670C 000:176.643   Value=0xE00FF000
T670C 000:176.680 - 0.063ms returns 0
T670C 000:179.561 JLINK_GetDebugInfo(0x100 = JLINKARM_ROM_TABLE_ADDR_INDEX)
T670C 000:179.603   Value=0xE00FF000
T670C 000:179.632 - 0.071ms returns 0
T670C 000:179.653 JLINK_GetDebugInfo(0x101 = JLINKARM_DEBUG_INFO_ETM_ADDR_INDEX)
T670C 000:179.676   Value=0x00000000
T670C 000:179.705 - 0.051ms returns 0
T670C 000:179.745 JLINK_ReadMemEx(0xE0041FF0, 0x10 Bytes, Flags = 0x02000004)
T670C 000:179.815   CPU_ReadMem(16 bytes @ 0xE0041FF0)
T670C 000:180.729   Data:  00 00 00 00 00 00 00 00 00 00 00 00 00 00 00 00
T670C 000:180.764 - 1.019ms returns 16 (0x10)
T670C 000:180.783 JLINK_GetDebugInfo(0x102 = JLINKARM_DEBUG_INFO_MTB_ADDR_INDEX)
T670C 000:180.806   Value=0x00000000
T670C 000:180.834 - 0.051ms returns 0
T670C 000:180.854 JLINK_GetDebugInfo(0x103 = JLINKARM_DEBUG_INFO_TPIU_ADDR_INDEX)
T670C 000:180.871   Value=0x00000000
T670C 000:180.898 - 0.044ms returns 0
T670C 000:180.917 JLINK_ReadMemEx(0xE0040FF0, 0x10 Bytes, Flags = 0x02000004)
T670C 000:180.939   CPU_ReadMem(16 bytes @ 0xE0040FF0)
T670C 000:182.008   Data:  00 00 00 00 00 00 00 00 00 00 00 00 00 00 00 00
T670C 000:182.036 - 1.118ms returns 16 (0x10)
T670C 000:182.055 JLINK_GetDebugInfo(0x104 = JLINKARM_DEBUG_INFO_ITM_ADDR_INDEX)
T670C 000:182.071   Value=0xE0000000
T670C 000:182.096 - 0.041ms returns 0
T670C 000:182.114 JLINK_GetDebugInfo(0x105 = JLINKARM_DEBUG_INFO_DWT_ADDR_INDEX)
T670C 000:182.131   Value=0xE0001000
T670C 000:182.156 - 0.042ms returns 0
T670C 000:182.176 JLINK_GetDebugInfo(0x106 = JLINKARM_DEBUG_INFO_FPB_ADDR_INDEX)
T670C 000:182.192   Value=0xE0002000
T670C 000:182.218 - 0.043ms returns 0
T670C 000:182.236 JLINK_GetDebugInfo(0x107 = JLINKARM_DEBUG_INFO_NVIC_ADDR_INDEX)
T670C 000:182.253   Value=0xE000E000
T670C 000:182.277 - 0.041ms returns 0
T670C 000:182.295 JLINK_GetDebugInfo(0x10C = JLINKARM_DEBUG_INFO_DBG_ADDR_INDEX)
T670C 000:182.312   Value=0xE000EDF0
T670C 000:182.337 - 0.041ms returns 0
T670C 000:182.355 JLINK_GetDebugInfo(0x01 = Unknown)
T670C 000:182.371   Value=0x00000000
T670C 000:182.396 - 0.041ms returns 0
T670C 000:182.423 JLINK_ReadMemU32(0xE000ED00, 0x1 Items)
T670C 000:182.441   CPU_ReadMem(4 bytes @ 0xE000ED00)
T670C 000:183.268   Data:  01 C6 0C 41
T670C 000:183.321   Debug reg: CPUID
T670C 000:183.359 - 0.936ms returns 1 (0x1)
T670C 000:183.388 JLINK_GetDebugInfo(0x10F = JLINKARM_DEBUG_INFO_HAS_CORTEX_M_SECURITY_EXT_INDEX)
T670C 000:183.414   Value=0x00000000
T670C 000:183.467 - 0.078ms returns 0
T670C 000:183.497 JLINK_HasError()
T670C 000:183.527 JLINK_SetResetType(JLINKARM_CM3_RESET_TYPE_NORMAL)
T670C 000:183.557 - 0.030ms returns JLINKARM_CM3_RESET_TYPE_NORMAL
T670C 000:183.585 JLINK_Reset()
T670C 000:183.626   JLINK_GetResetTypeDesc
T670C 000:183.674   - 0.048ms 
T670C 000:187.381   Reset type: NORMAL (https://kb.segger.com/J-Link_Reset_Strategies)
T670C 000:187.453   CPU is running
T670C 000:187.487   CPU_WriteMem(4 bytes @ 0xE000EDF0)
T670C 000:188.441   CPU is running
T670C 000:188.494   CPU_WriteMem(4 bytes @ 0xE000EDFC)
T670C 000:192.711   Reset: Halt core after reset via DEMCR.VC_CORERESET.
T670C 000:196.979   Reset: Reset device via AIRCR.SYSRESETREQ.
T670C 000:197.020   CPU is running
T670C 000:197.052   CPU_WriteMem(4 bytes @ 0xE000ED0C)
T670C 000:252.758   CPU_ReadMem(4 bytes @ 0xE000EDF0)
T670C 000:253.653   CPU_ReadMem(4 bytes @ 0xE000EDF0)
T670C 000:258.606   CPU_WriteMem(4 bytes @ 0xE000EDFC)
T670C 000:265.101   CPU_ReadMem(4 bytes @ 0xE000EDF0)
T670C 000:269.965   CPU_WriteMem(4 bytes @ 0xE0002000)
T670C 000:270.782   CPU_ReadMem(4 bytes @ 0xE000EDFC)
T670C 000:271.643   CPU_ReadMem(4 bytes @ 0xE0001000)
T670C 000:272.393   CPU_WriteMem(4 bytes @ 0xE0001000)
T670C 000:273.281 - 89.696ms 
T670C 000:273.357 JLINK_Halt()
T670C 000:273.389 - 0.031ms returns 0x00
T670C 000:273.413 JLINK_ReadMemU32(0xE000EDF0, 0x1 Items)
T670C 000:273.441   CPU_ReadMem(4 bytes @ 0xE000EDF0)
T670C 000:274.259   Data:  03 00 03 00
T670C 000:274.293   Debug reg: DHCSR
T670C 000:274.326 - 0.912ms returns 1 (0x1)
T670C 000:274.354 JLINK_WriteU32(0xE000EDF0, 0xA05F0003)
T670C 000:274.375   Debug reg: DHCSR
T670C 000:274.641   CPU_WriteMem(4 bytes @ 0xE000EDF0)
T670C 000:275.549 - 1.198ms returns 0 (0x00000000)
T670C 000:275.579 JLINK_WriteU32(0xE000EDFC, 0x01000000)
T670C 000:275.599   Debug reg: DEMCR
T670C 000:275.630   CPU_WriteMem(4 bytes @ 0xE000EDFC)
T670C 000:276.546 - 0.967ms returns 0 (0x00000000)
T670C 000:288.365 JLINK_GetHWStatus(...)
T670C 000:289.108 - 0.743ms returns 0
T670C 000:297.469 JLINK_GetNumBPUnits(Type = 0xFFFFFF00)
T670C 000:297.501 - 0.031ms returns 0x04
T670C 000:297.520 JLINK_GetNumBPUnits(Type = 0xF0)
T670C 000:297.538 - 0.017ms returns 0x2000
T670C 000:297.562 JLINK_GetNumWPUnits()
T670C 000:297.582 - 0.020ms returns 2
T670C 000:303.746 JLINK_GetSpeed()
T670C 000:303.778 - 0.031ms returns 2000
T670C 000:308.169 JLINK_ReadMemU32(0xE000E004, 0x1 Items)
T670C 000:308.210   CPU_ReadMem(4 bytes @ 0xE000E004)
T670C 000:309.039   Data:  00 00 00 00
T670C 000:309.101 - 0.931ms returns 1 (0x1)
T670C 000:309.135 JLINK_Halt()
T670C 000:309.161 - 0.025ms returns 0x00
T670C 000:309.187 JLINK_IsHalted()
T670C 000:309.214 - 0.026ms returns TRUE
T670C 000:312.223 JLINK_WriteMem(0x20000000, 0x184 Bytes, ...)
T670C 000:312.246   Data:  00 BE 0A E0 0D 78 2D 06 68 40 08 24 40 00 00 D3 ...
T670C 000:312.452   CPU_WriteMem(388 bytes @ 0x20000000)
T670C 000:316.086 - 3.863ms returns 0x184
T670C 000:316.131 JLINK_HasError()
T670C 000:316.164 JLINK_WriteReg(R0, 0x08000000)
T670C 000:316.188 - 0.031ms returns 0
T670C 000:316.210 JLINK_WriteReg(R1, 0x00B71B00)
T670C 000:316.232 - 0.021ms returns 0
T670C 000:316.254 JLINK_WriteReg(R2, 0x00000001)
T670C 000:316.276 - 0.021ms returns 0
T670C 000:316.298 JLINK_WriteReg(R3, 0x00000000)
T670C 000:316.319 - 0.021ms returns 0
T670C 000:316.343 JLINK_WriteReg(R4, 0x00000000)
T670C 000:316.365 - 0.021ms returns 0
T670C 000:316.387 JLINK_WriteReg(R5, 0x00000000)
T670C 000:316.408 - 0.021ms returns 0
T670C 000:316.431 JLINK_WriteReg(R6, 0x00000000)
T670C 000:316.452 - 0.021ms returns 0
T670C 000:316.474 JLINK_WriteReg(R7, 0x00000000)
T670C 000:316.496 - 0.021ms returns 0
T670C 000:316.518 JLINK_WriteReg(R8, 0x00000000)
T670C 000:316.540 - 0.021ms returns 0
T670C 000:316.562 JLINK_WriteReg(R9, 0x20000180)
T670C 000:316.583 - 0.021ms returns 0
T670C 000:316.605 JLINK_WriteReg(R10, 0x00000000)
T670C 000:316.652 - 0.047ms returns 0
T670C 000:316.677 JLINK_WriteReg(R11, 0x00000000)
T670C 000:316.700 - 0.023ms returns 0
T670C 000:316.724 JLINK_WriteReg(R12, 0x00000000)
T670C 000:316.748 - 0.023ms returns 0
T670C 000:316.772 JLINK_WriteReg(R13 (SP), 0x20001000)
T670C 000:316.796 - 0.024ms returns 0
T670C 000:316.820 JLINK_WriteReg(R14, 0x20000001)
T670C 000:316.843 - 0.023ms returns 0
T670C 000:316.872 JLINK_WriteReg(R15 (PC), 0x20000038)
T670C 000:316.895 - 0.028ms returns 0
T670C 000:316.919 JLINK_WriteReg(XPSR, 0x01000000)
T670C 000:316.942 - 0.023ms returns 0
T670C 000:316.966 JLINK_WriteReg(MSP, 0x20001000)
T670C 000:316.989 - 0.022ms returns 0
T670C 000:317.013 JLINK_WriteReg(PSP, 0x20001000)
T670C 000:317.036 - 0.023ms returns 0
T670C 000:317.060 JLINK_WriteReg(CFBP, 0x00000000)
T670C 000:317.084 - 0.023ms returns 0
T670C 000:317.109 JLINK_SetBPEx(Addr = 0x20000000, Type = 0xFFFFFFF2)
T670C 000:317.138   CPU_ReadMem(2 bytes @ 0x20000000)
T670C 000:318.017 - 0.908ms returns 0x00000001
T670C 000:318.055 JLINK_Go()
T670C 000:318.080   CPU_WriteMem(2 bytes @ 0x20000000)
T670C 000:318.964   CPU_ReadMem(4 bytes @ 0xE0001000)
T670C 000:319.767   CPU_WriteMem(4 bytes @ 0xE0001000)
T670C 000:320.618   CPU_WriteMem(4 bytes @ 0xE0002008)
T670C 000:320.645   CPU_WriteMem(4 bytes @ 0xE000200C)
T670C 000:320.670   CPU_WriteMem(4 bytes @ 0xE0002010)
T670C 000:320.695   CPU_WriteMem(4 bytes @ 0xE0002014)
T670C 000:322.193   CPU_WriteMem(4 bytes @ 0xE0001004)
T670C 000:330.866   Memory map 'after startup completion point' is active
T670C 000:330.909 - 12.854ms 
T670C 000:330.969 JLINK_IsHalted()
T670C 000:335.098   CPU_ReadMem(2 bytes @ 0x20000000)
T670C 000:335.937 - 4.966ms returns TRUE
T670C 000:335.968 JLINK_ReadReg(R15 (PC))
T670C 000:335.987 - 0.018ms returns 0x20000000
T670C 000:336.005 JLINK_ClrBPEx(BPHandle = 0x00000001)
T670C 000:336.022 - 0.017ms returns 0x00
T670C 000:336.041 JLINK_ReadReg(R0)
T670C 000:336.058 - 0.017ms returns 0x00000000
T670C 000:336.364 JLINK_HasError()
T670C 000:336.390 JLINK_WriteReg(R0, 0x08000000)
T670C 000:336.408 - 0.017ms returns 0
T670C 000:336.426 JLINK_WriteReg(R1, 0x00000200)
T670C 000:336.443 - 0.017ms returns 0
T670C 000:336.460 JLINK_WriteReg(R2, 0x000000FF)
T670C 000:336.477 - 0.016ms returns 0
T670C 000:336.495 JLINK_WriteReg(R3, 0x00000000)
T670C 000:336.566 - 0.071ms returns 0
T670C 000:336.586 JLINK_WriteReg(R4, 0x00000000)
T670C 000:336.603 - 0.016ms returns 0
T670C 000:336.621 JLINK_WriteReg(R5, 0x00000000)
T670C 000:336.638 - 0.017ms returns 0
T670C 000:336.655 JLINK_WriteReg(R6, 0x00000000)
T670C 000:336.672 - 0.016ms returns 0
T670C 000:336.690 JLINK_WriteReg(R7, 0x00000000)
T670C 000:336.707 - 0.016ms returns 0
T670C 000:336.724 JLINK_WriteReg(R8, 0x00000000)
T670C 000:336.741 - 0.016ms returns 0
T670C 000:336.759 JLINK_WriteReg(R9, 0x20000180)
T670C 000:336.775 - 0.016ms returns 0
T670C 000:336.793 JLINK_WriteReg(R10, 0x00000000)
T670C 000:336.810 - 0.016ms returns 0
T670C 000:336.827 JLINK_WriteReg(R11, 0x00000000)
T670C 000:336.844 - 0.017ms returns 0
T670C 000:336.862 JLINK_WriteReg(R12, 0x00000000)
T670C 000:336.879 - 0.016ms returns 0
T670C 000:336.896 JLINK_WriteReg(R13 (SP), 0x20001000)
T670C 000:336.913 - 0.017ms returns 0
T670C 000:336.931 JLINK_WriteReg(R14, 0x20000001)
T670C 000:336.947 - 0.016ms returns 0
T670C 000:336.965 JLINK_WriteReg(R15 (PC), 0x20000020)
T670C 000:336.982 - 0.016ms returns 0
T670C 000:336.999 JLINK_WriteReg(XPSR, 0x01000000)
T670C 000:337.016 - 0.016ms returns 0
T670C 000:337.034 JLINK_WriteReg(MSP, 0x20001000)
T670C 000:337.051 - 0.016ms returns 0
T670C 000:337.068 JLINK_WriteReg(PSP, 0x20001000)
T670C 000:337.085 - 0.016ms returns 0
T670C 000:337.102 JLINK_WriteReg(CFBP, 0x00000000)
T670C 000:337.120 - 0.017ms returns 0
T670C 000:337.138 JLINK_SetBPEx(Addr = 0x20000000, Type = 0xFFFFFFF2)
T670C 000:337.155 - 0.017ms returns 0x00000002
T670C 000:337.173 JLINK_Go()
T670C 000:337.197   CPU_ReadMem(4 bytes @ 0xE0001000)
T670C 000:341.941 - 4.766ms 
T670C 000:341.998 JLINK_IsHalted()
T670C 000:346.104   CPU_ReadMem(2 bytes @ 0x20000000)
T670C 000:346.905 - 4.908ms returns TRUE
T670C 000:346.942 JLINK_ReadReg(R15 (PC))
T670C 000:346.965 - 0.023ms returns 0x20000000
T670C 000:346.988 JLINK_ClrBPEx(BPHandle = 0x00000002)
T670C 000:347.010 - 0.021ms returns 0x00
T670C 000:347.033 JLINK_ReadReg(R0)
T670C 000:347.054 - 0.021ms returns 0x00000001
T670C 000:347.077 JLINK_HasError()
T670C 000:347.100 JLINK_WriteReg(R0, 0x08000000)
T670C 000:347.122 - 0.021ms returns 0
T670C 000:347.145 JLINK_WriteReg(R1, 0x00000200)
T670C 000:347.166 - 0.021ms returns 0
T670C 000:347.190 JLINK_WriteReg(R2, 0x000000FF)
T670C 000:347.212 - 0.021ms returns 0
T670C 000:347.234 JLINK_WriteReg(R3, 0x00000000)
T670C 000:347.255 - 0.021ms returns 0
T670C 000:347.278 JLINK_WriteReg(R4, 0x00000000)
T670C 000:347.299 - 0.021ms returns 0
T670C 000:347.321 JLINK_WriteReg(R5, 0x00000000)
T670C 000:347.343 - 0.021ms returns 0
T670C 000:347.365 JLINK_WriteReg(R6, 0x00000000)
T670C 000:347.386 - 0.021ms returns 0
T670C 000:347.408 JLINK_WriteReg(R7, 0x00000000)
T670C 000:347.429 - 0.021ms returns 0
T670C 000:347.451 JLINK_WriteReg(R8, 0x00000000)
T670C 000:347.473 - 0.021ms returns 0
T670C 000:347.495 JLINK_WriteReg(R9, 0x20000180)
T670C 000:347.517 - 0.021ms returns 0
T670C 000:347.539 JLINK_WriteReg(R10, 0x00000000)
T670C 000:347.560 - 0.021ms returns 0
T670C 000:347.582 JLINK_WriteReg(R11, 0x00000000)
T670C 000:347.603 - 0.021ms returns 0
T670C 000:347.625 JLINK_WriteReg(R12, 0x00000000)
T670C 000:347.647 - 0.021ms returns 0
T670C 000:347.669 JLINK_WriteReg(R13 (SP), 0x20001000)
T670C 000:347.690 - 0.021ms returns 0
T670C 000:347.713 JLINK_WriteReg(R14, 0x20000001)
T670C 000:347.734 - 0.021ms returns 0
T670C 000:347.756 JLINK_WriteReg(R15 (PC), 0x200000B8)
T670C 000:347.777 - 0.021ms returns 0
T670C 000:347.800 JLINK_WriteReg(XPSR, 0x01000000)
T670C 000:347.821 - 0.021ms returns 0
T670C 000:347.846 JLINK_WriteReg(MSP, 0x20001000)
T670C 000:347.863 - 0.016ms returns 0
T670C 000:347.880 JLINK_WriteReg(PSP, 0x20001000)
T670C 000:347.897 - 0.016ms returns 0
T670C 000:347.914 JLINK_WriteReg(CFBP, 0x00000000)
T670C 000:347.931 - 0.016ms returns 0
T670C 000:347.948 JLINK_SetBPEx(Addr = 0x20000000, Type = 0xFFFFFFF2)
T670C 000:347.965 - 0.017ms returns 0x00000003
T670C 000:348.087 JLINK_Go()
T670C 000:348.117   CPU_ReadMem(4 bytes @ 0xE0001000)
T670C 000:352.796 - 4.708ms 
T670C 000:352.828 JLINK_IsHalted()
T670C 000:353.656 - 0.827ms returns FALSE
T670C 000:353.692 JLINK_HasError()
T670C 000:363.857 JLINK_IsHalted()
T670C 000:368.091   CPU_ReadMem(2 bytes @ 0x20000000)
T670C 000:368.905 - 5.047ms returns TRUE
T670C 000:368.965 JLINK_ReadReg(R15 (PC))
T670C 000:369.006 - 0.042ms returns 0x20000000
T670C 000:369.041 JLINK_ClrBPEx(BPHandle = 0x00000003)
T670C 000:369.075 - 0.033ms returns 0x00
T670C 000:369.111 JLINK_ReadReg(R0)
T670C 000:369.138 - 0.029ms returns 0x00000000
T670C 000:370.588 JLINK_HasError()
T670C 000:370.634 JLINK_WriteReg(R0, 0x08000200)
T670C 000:370.657 - 0.024ms returns 0
T670C 000:370.679 JLINK_WriteReg(R1, 0x00000200)
T670C 000:370.699 - 0.019ms returns 0
T670C 000:370.719 JLINK_WriteReg(R2, 0x000000FF)
T670C 000:370.739 - 0.019ms returns 0
T670C 000:370.759 JLINK_WriteReg(R3, 0x00000000)
T670C 000:370.778 - 0.019ms returns 0
T670C 000:370.799 JLINK_WriteReg(R4, 0x00000000)
T670C 000:370.819 - 0.019ms returns 0
T670C 000:370.839 JLINK_WriteReg(R5, 0x00000000)
T670C 000:370.858 - 0.019ms returns 0
T670C 000:370.878 JLINK_WriteReg(R6, 0x00000000)
T670C 000:370.897 - 0.019ms returns 0
T670C 000:370.917 JLINK_WriteReg(R7, 0x00000000)
T670C 000:370.936 - 0.019ms returns 0
T670C 000:370.957 JLINK_WriteReg(R8, 0x00000000)
T670C 000:370.976 - 0.019ms returns 0
T670C 000:370.996 JLINK_WriteReg(R9, 0x20000180)
T670C 000:371.015 - 0.019ms returns 0
T670C 000:371.036 JLINK_WriteReg(R10, 0x00000000)
T670C 000:371.055 - 0.019ms returns 0
T670C 000:371.076 JLINK_WriteReg(R11, 0x00000000)
T670C 000:371.095 - 0.019ms returns 0
T670C 000:371.115 JLINK_WriteReg(R12, 0x00000000)
T670C 000:371.135 - 0.020ms returns 0
T670C 000:371.156 JLINK_WriteReg(R13 (SP), 0x20001000)
T670C 000:371.176 - 0.020ms returns 0
T670C 000:371.196 JLINK_WriteReg(R14, 0x20000001)
T670C 000:371.215 - 0.019ms returns 0
T670C 000:371.236 JLINK_WriteReg(R15 (PC), 0x20000020)
T670C 000:371.256 - 0.019ms returns 0
T670C 000:371.277 JLINK_WriteReg(XPSR, 0x01000000)
T670C 000:371.296 - 0.020ms returns 0
T670C 000:371.317 JLINK_WriteReg(MSP, 0x20001000)
T670C 000:371.336 - 0.019ms returns 0
T670C 000:371.356 JLINK_WriteReg(PSP, 0x20001000)
T670C 000:371.375 - 0.019ms returns 0
T670C 000:371.396 JLINK_WriteReg(CFBP, 0x00000000)
T670C 000:371.415 - 0.019ms returns 0
T670C 000:371.436 JLINK_SetBPEx(Addr = 0x20000000, Type = 0xFFFFFFF2)
T670C 000:371.456 - 0.020ms returns 0x00000004
T670C 000:371.477 JLINK_Go()
T670C 000:371.509   CPU_ReadMem(4 bytes @ 0xE0001000)
T670C 000:376.441 - 4.963ms 
T670C 000:376.482 JLINK_IsHalted()
T670C 000:380.588   CPU_ReadMem(2 bytes @ 0x20000000)
T670C 000:381.392 - 4.909ms returns TRUE
T670C 000:381.496 JLINK_ReadReg(R15 (PC))
T670C 000:381.524 - 0.028ms returns 0x20000000
T670C 000:381.549 JLINK_ClrBPEx(BPHandle = 0x00000004)
T670C 000:381.574 - 0.024ms returns 0x00
T670C 000:381.599 JLINK_ReadReg(R0)
T670C 000:381.623 - 0.023ms returns 0x00000001
T670C 000:381.647 JLINK_HasError()
T670C 000:381.673 JLINK_WriteReg(R0, 0x08000200)
T670C 000:381.697 - 0.024ms returns 0
T670C 000:381.722 JLINK_WriteReg(R1, 0x00000200)
T670C 000:381.746 - 0.024ms returns 0
T670C 000:381.771 JLINK_WriteReg(R2, 0x000000FF)
T670C 000:381.794 - 0.023ms returns 0
T670C 000:381.819 JLINK_WriteReg(R3, 0x00000000)
T670C 000:381.843 - 0.023ms returns 0
T670C 000:381.868 JLINK_WriteReg(R4, 0x00000000)
T670C 000:381.891 - 0.023ms returns 0
T670C 000:381.916 JLINK_WriteReg(R5, 0x00000000)
T670C 000:381.940 - 0.023ms returns 0
T670C 000:381.965 JLINK_WriteReg(R6, 0x00000000)
T670C 000:381.989 - 0.023ms returns 0
T670C 000:382.014 JLINK_WriteReg(R7, 0x00000000)
T670C 000:382.038 - 0.023ms returns 0
T670C 000:382.063 JLINK_WriteReg(R8, 0x00000000)
T670C 000:382.087 - 0.024ms returns 0
T670C 000:382.111 JLINK_WriteReg(R9, 0x20000180)
T670C 000:382.136 - 0.024ms returns 0
T670C 000:382.160 JLINK_WriteReg(R10, 0x00000000)
T670C 000:382.299 - 0.138ms returns 0
T670C 000:382.330 JLINK_WriteReg(R11, 0x00000000)
T670C 000:382.354 - 0.023ms returns 0
T670C 000:382.379 JLINK_WriteReg(R12, 0x00000000)
T670C 000:382.402 - 0.023ms returns 0
T670C 000:382.427 JLINK_WriteReg(R13 (SP), 0x20001000)
T670C 000:382.450 - 0.023ms returns 0
T670C 000:382.475 JLINK_WriteReg(R14, 0x20000001)
T670C 000:382.499 - 0.024ms returns 0
T670C 000:382.524 JLINK_WriteReg(R15 (PC), 0x200000B8)
T670C 000:382.547 - 0.023ms returns 0
T670C 000:382.572 JLINK_WriteReg(XPSR, 0x01000000)
T670C 000:382.596 - 0.023ms returns 0
T670C 000:382.620 JLINK_WriteReg(MSP, 0x20001000)
T670C 000:382.646 - 0.026ms returns 0
T670C 000:382.667 JLINK_WriteReg(PSP, 0x20001000)
T670C 000:382.685 - 0.018ms returns 0
T670C 000:382.706 JLINK_WriteReg(CFBP, 0x00000000)
T670C 000:382.725 - 0.019ms returns 0
T670C 000:382.745 JLINK_SetBPEx(Addr = 0x20000000, Type = 0xFFFFFFF2)
T670C 000:382.765 - 0.019ms returns 0x00000005
T670C 000:382.785 JLINK_Go()
T670C 000:382.808   CPU_ReadMem(4 bytes @ 0xE0001000)
T670C 000:387.697 - 4.910ms 
T670C 000:387.762 JLINK_IsHalted()
T670C 000:388.665 - 0.904ms returns FALSE
T670C 000:388.698 JLINK_HasError()
T670C 000:391.272 JLINK_IsHalted()
T670C 000:395.610   CPU_ReadMem(2 bytes @ 0x20000000)
T670C 000:396.403 - 5.130ms returns TRUE
T670C 000:396.439 JLINK_ReadReg(R15 (PC))
T670C 000:396.465 - 0.026ms returns 0x20000000
T670C 000:396.492 JLINK_ClrBPEx(BPHandle = 0x00000005)
T670C 000:396.516 - 0.025ms returns 0x00
T670C 000:396.543 JLINK_ReadReg(R0)
T670C 000:396.567 - 0.024ms returns 0x00000000
T670C 000:397.324 JLINK_HasError()
T670C 000:397.359 JLINK_WriteReg(R0, 0x08000400)
T670C 000:397.385 - 0.025ms returns 0
T670C 000:397.409 JLINK_WriteReg(R1, 0x00000200)
T670C 000:397.433 - 0.023ms returns 0
T670C 000:397.457 JLINK_WriteReg(R2, 0x000000FF)
T670C 000:397.480 - 0.023ms returns 0
T670C 000:397.506 JLINK_WriteReg(R3, 0x00000000)
T670C 000:397.529 - 0.023ms returns 0
T670C 000:397.553 JLINK_WriteReg(R4, 0x00000000)
T670C 000:397.577 - 0.023ms returns 0
T670C 000:397.601 JLINK_WriteReg(R5, 0x00000000)
T670C 000:397.624 - 0.022ms returns 0
T670C 000:397.648 JLINK_WriteReg(R6, 0x00000000)
T670C 000:397.671 - 0.022ms returns 0
T670C 000:397.700 JLINK_WriteReg(R7, 0x00000000)
T670C 000:397.723 - 0.023ms returns 0
T670C 000:397.748 JLINK_WriteReg(R8, 0x00000000)
T670C 000:397.771 - 0.023ms returns 0
T670C 000:397.796 JLINK_WriteReg(R9, 0x20000180)
T670C 000:397.818 - 0.023ms returns 0
T670C 000:397.842 JLINK_WriteReg(R10, 0x00000000)
T670C 000:397.865 - 0.022ms returns 0
T670C 000:397.888 JLINK_WriteReg(R11, 0x00000000)
T670C 000:397.912 - 0.023ms returns 0
T670C 000:397.937 JLINK_WriteReg(R12, 0x00000000)
T670C 000:397.961 - 0.023ms returns 0
T670C 000:397.986 JLINK_WriteReg(R13 (SP), 0x20001000)
T670C 000:398.010 - 0.024ms returns 0
T670C 000:398.035 JLINK_WriteReg(R14, 0x20000001)
T670C 000:398.059 - 0.023ms returns 0
T670C 000:398.084 JLINK_WriteReg(R15 (PC), 0x20000020)
T670C 000:398.108 - 0.024ms returns 0
T670C 000:398.133 JLINK_WriteReg(XPSR, 0x01000000)
T670C 000:398.157 - 0.024ms returns 0
T670C 000:398.182 JLINK_WriteReg(MSP, 0x20001000)
T670C 000:398.206 - 0.024ms returns 0
T670C 000:398.232 JLINK_WriteReg(PSP, 0x20001000)
T670C 000:398.258 - 0.026ms returns 0
T670C 000:398.278 JLINK_WriteReg(CFBP, 0x00000000)
T670C 000:398.297 - 0.019ms returns 0
T670C 000:398.318 JLINK_SetBPEx(Addr = 0x20000000, Type = 0xFFFFFFF2)
T670C 000:398.339 - 0.020ms returns 0x00000006
T670C 000:398.359 JLINK_Go()
T670C 000:398.387   CPU_ReadMem(4 bytes @ 0xE0001000)
T670C 000:403.178 - 4.817ms 
T670C 000:403.227 JLINK_IsHalted()
T670C 000:407.462   CPU_ReadMem(2 bytes @ 0x20000000)
T670C 000:408.281 - 5.054ms returns TRUE
T670C 000:408.328 JLINK_ReadReg(R15 (PC))
T670C 000:408.354 - 0.025ms returns 0x20000000
T670C 000:408.381 JLINK_ClrBPEx(BPHandle = 0x00000006)
T670C 000:408.406 - 0.024ms returns 0x00
T670C 000:408.433 JLINK_ReadReg(R0)
T670C 000:408.457 - 0.024ms returns 0x00000001
T670C 000:408.495 JLINK_HasError()
T670C 000:408.527 JLINK_WriteReg(R0, 0x08000400)
T670C 000:408.555 - 0.028ms returns 0
T670C 000:408.582 JLINK_WriteReg(R1, 0x00000200)
T670C 000:408.605 - 0.023ms returns 0
T670C 000:408.633 JLINK_WriteReg(R2, 0x000000FF)
T670C 000:408.658 - 0.024ms returns 0
T670C 000:408.685 JLINK_WriteReg(R3, 0x00000000)
T670C 000:408.709 - 0.024ms returns 0
T670C 000:408.735 JLINK_WriteReg(R4, 0x00000000)
T670C 000:408.759 - 0.024ms returns 0
T670C 000:408.785 JLINK_WriteReg(R5, 0x00000000)
T670C 000:408.809 - 0.024ms returns 0
T670C 000:408.835 JLINK_WriteReg(R6, 0x00000000)
T670C 000:408.859 - 0.023ms returns 0
T670C 000:408.885 JLINK_WriteReg(R7, 0x00000000)
T670C 000:408.909 - 0.023ms returns 0
T670C 000:408.935 JLINK_WriteReg(R8, 0x00000000)
T670C 000:408.959 - 0.024ms returns 0
T670C 000:408.986 JLINK_WriteReg(R9, 0x20000180)
T670C 000:409.010 - 0.024ms returns 0
T670C 000:409.036 JLINK_WriteReg(R10, 0x00000000)
T670C 000:409.060 - 0.023ms returns 0
T670C 000:409.086 JLINK_WriteReg(R11, 0x00000000)
T670C 000:409.110 - 0.023ms returns 0
T670C 000:409.137 JLINK_WriteReg(R12, 0x00000000)
T670C 000:409.160 - 0.023ms returns 0
T670C 000:409.187 JLINK_WriteReg(R13 (SP), 0x20001000)
T670C 000:409.211 - 0.023ms returns 0
T670C 000:409.237 JLINK_WriteReg(R14, 0x20000001)
T670C 000:409.260 - 0.023ms returns 0
T670C 000:409.322 JLINK_WriteReg(R15 (PC), 0x200000B8)
T670C 000:409.346 - 0.024ms returns 0
T670C 000:409.372 JLINK_WriteReg(XPSR, 0x01000000)
T670C 000:409.396 - 0.024ms returns 0
T670C 000:409.422 JLINK_WriteReg(MSP, 0x20001000)
T670C 000:409.446 - 0.023ms returns 0
T670C 000:409.472 JLINK_WriteReg(PSP, 0x20001000)
T670C 000:409.496 - 0.023ms returns 0
T670C 000:409.522 JLINK_WriteReg(CFBP, 0x00000000)
T670C 000:409.546 - 0.023ms returns 0
T670C 000:409.572 JLINK_SetBPEx(Addr = 0x20000000, Type = 0xFFFFFFF2)
T670C 000:409.597 - 0.024ms returns 0x00000007
T670C 000:409.623 JLINK_Go()
T670C 000:409.655   CPU_ReadMem(4 bytes @ 0xE0001000)
T670C 000:414.430 - 4.806ms 
T670C 000:414.461 JLINK_IsHalted()
T670C 000:415.300 - 0.838ms returns FALSE
T670C 000:415.343 JLINK_HasError()
T670C 000:416.590 JLINK_IsHalted()
T670C 000:417.411 - 0.820ms returns FALSE
T670C 000:417.447 JLINK_HasError()
T670C 000:418.615 JLINK_IsHalted()
T670C 000:422.716   CPU_ReadMem(2 bytes @ 0x20000000)
T670C 000:423.532 - 4.917ms returns TRUE
T670C 000:423.569 JLINK_ReadReg(R15 (PC))
T670C 000:423.594 - 0.025ms returns 0x20000000
T670C 000:423.620 JLINK_ClrBPEx(BPHandle = 0x00000007)
T670C 000:423.643 - 0.023ms returns 0x00
T670C 000:423.668 JLINK_ReadReg(R0)
T670C 000:423.691 - 0.022ms returns 0x00000000
T670C 000:424.418 JLINK_HasError()
T670C 000:424.452 JLINK_WriteReg(R0, 0x08000600)
T670C 000:424.478 - 0.025ms returns 0
T670C 000:424.506 JLINK_WriteReg(R1, 0x00000200)
T670C 000:424.529 - 0.023ms returns 0
T670C 000:424.553 JLINK_WriteReg(R2, 0x000000FF)
T670C 000:424.576 - 0.023ms returns 0
T670C 000:424.600 JLINK_WriteReg(R3, 0x00000000)
T670C 000:424.623 - 0.022ms returns 0
T670C 000:424.648 JLINK_WriteReg(R4, 0x00000000)
T670C 000:424.669 - 0.021ms returns 0
T670C 000:424.689 JLINK_WriteReg(R5, 0x00000000)
T670C 000:424.707 - 0.018ms returns 0
T670C 000:424.726 JLINK_WriteReg(R6, 0x00000000)
T670C 000:424.745 - 0.018ms returns 0
T670C 000:424.764 JLINK_WriteReg(R7, 0x00000000)
T670C 000:424.784 - 0.019ms returns 0
T670C 000:424.804 JLINK_WriteReg(R8, 0x00000000)
T670C 000:424.823 - 0.019ms returns 0
T670C 000:424.844 JLINK_WriteReg(R9, 0x20000180)
T670C 000:424.863 - 0.019ms returns 0
T670C 000:424.883 JLINK_WriteReg(R10, 0x00000000)
T670C 000:424.903 - 0.019ms returns 0
T670C 000:424.923 JLINK_WriteReg(R11, 0x00000000)
T670C 000:424.943 - 0.019ms returns 0
T670C 000:424.963 JLINK_WriteReg(R12, 0x00000000)
T670C 000:424.982 - 0.019ms returns 0
T670C 000:425.003 JLINK_WriteReg(R13 (SP), 0x20001000)
T670C 000:425.022 - 0.019ms returns 0
T670C 000:425.042 JLINK_WriteReg(R14, 0x20000001)
T670C 000:425.061 - 0.019ms returns 0
T670C 000:425.089 JLINK_WriteReg(R15 (PC), 0x20000020)
T670C 000:425.110 - 0.021ms returns 0
T670C 000:425.130 JLINK_WriteReg(XPSR, 0x01000000)
T670C 000:425.149 - 0.018ms returns 0
T670C 000:425.170 JLINK_WriteReg(MSP, 0x20001000)
T670C 000:425.189 - 0.019ms returns 0
T670C 000:425.214 JLINK_WriteReg(PSP, 0x20001000)
T670C 000:425.233 - 0.019ms returns 0
T670C 000:425.253 JLINK_WriteReg(CFBP, 0x00000000)
T670C 000:425.272 - 0.019ms returns 0
T670C 000:425.292 JLINK_SetBPEx(Addr = 0x20000000, Type = 0xFFFFFFF2)
T670C 000:425.312 - 0.020ms returns 0x00000008
T670C 000:425.332 JLINK_Go()
T670C 000:425.357   CPU_ReadMem(4 bytes @ 0xE0001000)
T670C 000:430.057 - 4.725ms 
T670C 000:430.086 JLINK_IsHalted()
T670C 000:434.429   CPU_ReadMem(2 bytes @ 0x20000000)
T670C 000:435.277 - 5.190ms returns TRUE
T670C 000:435.307 JLINK_ReadReg(R15 (PC))
T670C 000:435.332 - 0.025ms returns 0x20000000
T670C 000:435.358 JLINK_ClrBPEx(BPHandle = 0x00000008)
T670C 000:435.382 - 0.024ms returns 0x00
T670C 000:435.408 JLINK_ReadReg(R0)
T670C 000:435.432 - 0.024ms returns 0x00000001
T670C 000:435.467 JLINK_HasError()
T670C 000:435.495 JLINK_WriteReg(R0, 0x08000600)
T670C 000:435.523 - 0.027ms returns 0
T670C 000:435.551 JLINK_WriteReg(R1, 0x00000200)
T670C 000:435.581 - 0.029ms returns 0
T670C 000:435.609 JLINK_WriteReg(R2, 0x000000FF)
T670C 000:435.637 - 0.027ms returns 0
T670C 000:435.665 JLINK_WriteReg(R3, 0x00000000)
T670C 000:435.692 - 0.026ms returns 0
T670C 000:435.720 JLINK_WriteReg(R4, 0x00000000)
T670C 000:435.747 - 0.026ms returns 0
T670C 000:435.775 JLINK_WriteReg(R5, 0x00000000)
T670C 000:435.802 - 0.027ms returns 0
T670C 000:435.831 JLINK_WriteReg(R6, 0x00000000)
T670C 000:435.858 - 0.027ms returns 0
T670C 000:435.886 JLINK_WriteReg(R7, 0x00000000)
T670C 000:435.914 - 0.027ms returns 0
T670C 000:435.941 JLINK_WriteReg(R8, 0x00000000)
T670C 000:435.969 - 0.027ms returns 0
T670C 000:435.996 JLINK_WriteReg(R9, 0x20000180)
T670C 000:436.023 - 0.027ms returns 0
T670C 000:436.052 JLINK_WriteReg(R10, 0x00000000)
T670C 000:436.078 - 0.026ms returns 0
T670C 000:436.106 JLINK_WriteReg(R11, 0x00000000)
T670C 000:436.133 - 0.027ms returns 0
T670C 000:436.161 JLINK_WriteReg(R12, 0x00000000)
T670C 000:436.188 - 0.026ms returns 0
T670C 000:436.216 JLINK_WriteReg(R13 (SP), 0x20001000)
T670C 000:436.243 - 0.027ms returns 0
T670C 000:436.271 JLINK_WriteReg(R14, 0x20000001)
T670C 000:436.299 - 0.027ms returns 0
T670C 000:436.327 JLINK_WriteReg(R15 (PC), 0x200000B8)
T670C 000:436.354 - 0.027ms returns 0
T670C 000:436.382 JLINK_WriteReg(XPSR, 0x01000000)
T670C 000:436.409 - 0.027ms returns 0
T670C 000:436.435 JLINK_WriteReg(MSP, 0x20001000)
T670C 000:436.457 - 0.021ms returns 0
T670C 000:436.481 JLINK_WriteReg(PSP, 0x20001000)
T670C 000:436.502 - 0.020ms returns 0
T670C 000:436.523 JLINK_WriteReg(CFBP, 0x00000000)
T670C 000:436.543 - 0.019ms returns 0
T670C 000:436.565 JLINK_SetBPEx(Addr = 0x20000000, Type = 0xFFFFFFF2)
T670C 000:436.585 - 0.020ms returns 0x00000009
T670C 000:436.605 JLINK_Go()
T670C 000:436.630   CPU_ReadMem(4 bytes @ 0xE0001000)
T670C 000:441.492 - 4.886ms 
T670C 000:441.538 JLINK_IsHalted()
T670C 000:442.413 - 0.874ms returns FALSE
T670C 000:442.459 JLINK_HasError()
T670C 000:445.413 JLINK_IsHalted()
T670C 000:449.751   CPU_ReadMem(2 bytes @ 0x20000000)
T670C 000:450.652 - 5.238ms returns TRUE
T670C 000:450.695 JLINK_ReadReg(R15 (PC))
T670C 000:450.725 - 0.029ms returns 0x20000000
T670C 000:450.754 JLINK_ClrBPEx(BPHandle = 0x00000009)
T670C 000:450.782 - 0.028ms returns 0x00
T670C 000:450.812 JLINK_ReadReg(R0)
T670C 000:450.839 - 0.027ms returns 0x00000000
T670C 000:451.684 JLINK_HasError()
T670C 000:451.722 JLINK_WriteReg(R0, 0x08000800)
T670C 000:451.748 - 0.026ms returns 0
T670C 000:451.773 JLINK_WriteReg(R1, 0x00000200)
T670C 000:451.798 - 0.025ms returns 0
T670C 000:451.825 JLINK_WriteReg(R2, 0x000000FF)
T670C 000:451.848 - 0.023ms returns 0
T670C 000:451.874 JLINK_WriteReg(R3, 0x00000000)
T670C 000:451.898 - 0.023ms returns 0
T670C 000:451.923 JLINK_WriteReg(R4, 0x00000000)
T670C 000:451.962 - 0.039ms returns 0
T670C 000:451.987 JLINK_WriteReg(R5, 0x00000000)
T670C 000:452.011 - 0.024ms returns 0
T670C 000:452.036 JLINK_WriteReg(R6, 0x00000000)
T670C 000:452.060 - 0.023ms returns 0
T670C 000:452.084 JLINK_WriteReg(R7, 0x00000000)
T670C 000:452.108 - 0.023ms returns 0
T670C 000:452.133 JLINK_WriteReg(R8, 0x00000000)
T670C 000:452.157 - 0.024ms returns 0
T670C 000:452.182 JLINK_WriteReg(R9, 0x20000180)
T670C 000:452.205 - 0.023ms returns 0
T670C 000:452.230 JLINK_WriteReg(R10, 0x00000000)
T670C 000:452.254 - 0.024ms returns 0
T670C 000:452.279 JLINK_WriteReg(R11, 0x00000000)
T670C 000:452.303 - 0.023ms returns 0
T670C 000:452.328 JLINK_WriteReg(R12, 0x00000000)
T670C 000:452.352 - 0.023ms returns 0
T670C 000:452.377 JLINK_WriteReg(R13 (SP), 0x20001000)
T670C 000:452.401 - 0.024ms returns 0
T670C 000:452.426 JLINK_WriteReg(R14, 0x20000001)
T670C 000:452.451 - 0.025ms returns 0
T670C 000:452.476 JLINK_WriteReg(R15 (PC), 0x20000020)
T670C 000:452.500 - 0.023ms returns 0
T670C 000:452.525 JLINK_WriteReg(XPSR, 0x01000000)
T670C 000:452.548 - 0.024ms returns 0
T670C 000:452.573 JLINK_WriteReg(MSP, 0x20001000)
T670C 000:452.596 - 0.023ms returns 0
T670C 000:452.621 JLINK_WriteReg(PSP, 0x20001000)
T670C 000:452.644 - 0.023ms returns 0
T670C 000:452.669 JLINK_WriteReg(CFBP, 0x00000000)
T670C 000:452.692 - 0.023ms returns 0
T670C 000:452.718 JLINK_SetBPEx(Addr = 0x20000000, Type = 0xFFFFFFF2)
T670C 000:452.742 - 0.024ms returns 0x0000000A
T670C 000:452.767 JLINK_Go()
T670C 000:452.800   CPU_ReadMem(4 bytes @ 0xE0001000)
T670C 000:457.676 - 4.908ms 
T670C 000:457.709 JLINK_IsHalted()
T670C 000:461.833   CPU_ReadMem(2 bytes @ 0x20000000)
T670C 000:462.643 - 4.934ms returns TRUE
T670C 000:462.670 JLINK_ReadReg(R15 (PC))
T670C 000:462.692 - 0.022ms returns 0x20000000
T670C 000:462.715 JLINK_ClrBPEx(BPHandle = 0x0000000A)
T670C 000:462.737 - 0.021ms returns 0x00
T670C 000:462.759 JLINK_ReadReg(R0)
T670C 000:462.781 - 0.021ms returns 0x00000001
T670C 000:462.804 JLINK_HasError()
T670C 000:462.826 JLINK_WriteReg(R0, 0x08000800)
T670C 000:462.848 - 0.021ms returns 0
T670C 000:462.873 JLINK_WriteReg(R1, 0x00000200)
T670C 000:462.895 - 0.021ms returns 0
T670C 000:462.917 JLINK_WriteReg(R2, 0x000000FF)
T670C 000:462.940 - 0.023ms returns 0
T670C 000:462.962 JLINK_WriteReg(R3, 0x00000000)
T670C 000:462.983 - 0.021ms returns 0
T670C 000:463.006 JLINK_WriteReg(R4, 0x00000000)
T670C 000:463.027 - 0.021ms returns 0
T670C 000:463.049 JLINK_WriteReg(R5, 0x00000000)
T670C 000:463.070 - 0.021ms returns 0
T670C 000:463.093 JLINK_WriteReg(R6, 0x00000000)
T670C 000:463.114 - 0.021ms returns 0
T670C 000:463.136 JLINK_WriteReg(R7, 0x00000000)
T670C 000:463.157 - 0.021ms returns 0
T670C 000:463.179 JLINK_WriteReg(R8, 0x00000000)
T670C 000:463.201 - 0.021ms returns 0
T670C 000:463.223 JLINK_WriteReg(R9, 0x20000180)
T670C 000:463.244 - 0.021ms returns 0
T670C 000:463.266 JLINK_WriteReg(R10, 0x00000000)
T670C 000:463.287 - 0.021ms returns 0
T670C 000:463.309 JLINK_WriteReg(R11, 0x00000000)
T670C 000:463.331 - 0.021ms returns 0
T670C 000:463.354 JLINK_WriteReg(R12, 0x00000000)
T670C 000:463.375 - 0.021ms returns 0
T670C 000:463.397 JLINK_WriteReg(R13 (SP), 0x20001000)
T670C 000:463.418 - 0.021ms returns 0
T670C 000:463.441 JLINK_WriteReg(R14, 0x20000001)
T670C 000:463.462 - 0.021ms returns 0
T670C 000:463.484 JLINK_WriteReg(R15 (PC), 0x200000B8)
T670C 000:463.506 - 0.021ms returns 0
T670C 000:463.528 JLINK_WriteReg(XPSR, 0x01000000)
T670C 000:463.551 - 0.023ms returns 0
T670C 000:463.573 JLINK_WriteReg(MSP, 0x20001000)
T670C 000:463.595 - 0.021ms returns 0
T670C 000:463.617 JLINK_WriteReg(PSP, 0x20001000)
T670C 000:463.638 - 0.021ms returns 0
T670C 000:463.660 JLINK_WriteReg(CFBP, 0x00000000)
T670C 000:463.681 - 0.021ms returns 0
T670C 000:463.704 JLINK_SetBPEx(Addr = 0x20000000, Type = 0xFFFFFFF2)
T670C 000:463.725 - 0.021ms returns 0x0000000B
T670C 000:463.747 JLINK_Go()
T670C 000:463.773   CPU_ReadMem(4 bytes @ 0xE0001000)
T670C 000:468.562 - 4.814ms 
T670C 000:468.604 JLINK_IsHalted()
T670C 000:469.398 - 0.793ms returns FALSE
T670C 000:469.432 JLINK_HasError()
T670C 000:474.282 JLINK_IsHalted()
T670C 000:478.653   CPU_ReadMem(2 bytes @ 0x20000000)
T670C 000:479.541 - 5.257ms returns TRUE
T670C 000:479.582 JLINK_ReadReg(R15 (PC))
T670C 000:479.609 - 0.026ms returns 0x20000000
T670C 000:479.635 JLINK_ClrBPEx(BPHandle = 0x0000000B)
T670C 000:479.660 - 0.025ms returns 0x00
T670C 000:479.686 JLINK_ReadReg(R0)
T670C 000:479.710 - 0.024ms returns 0x00000000
T670C 000:480.373 JLINK_HasError()
T670C 000:480.409 JLINK_WriteReg(R0, 0x08000A00)
T670C 000:480.435 - 0.025ms returns 0
T670C 000:480.459 JLINK_WriteReg(R1, 0x00000200)
T670C 000:480.483 - 0.023ms returns 0
T670C 000:480.507 JLINK_WriteReg(R2, 0x000000FF)
T670C 000:480.530 - 0.023ms returns 0
T670C 000:480.554 JLINK_WriteReg(R3, 0x00000000)
T670C 000:480.577 - 0.023ms returns 0
T670C 000:480.602 JLINK_WriteReg(R4, 0x00000000)
T670C 000:480.625 - 0.022ms returns 0
T670C 000:480.649 JLINK_WriteReg(R5, 0x00000000)
T670C 000:480.672 - 0.022ms returns 0
T670C 000:480.696 JLINK_WriteReg(R6, 0x00000000)
T670C 000:480.719 - 0.023ms returns 0
T670C 000:480.743 JLINK_WriteReg(R7, 0x00000000)
T670C 000:480.768 - 0.025ms returns 0
T670C 000:480.792 JLINK_WriteReg(R8, 0x00000000)
T670C 000:480.815 - 0.022ms returns 0
T670C 000:480.840 JLINK_WriteReg(R9, 0x20000180)
T670C 000:480.864 - 0.023ms returns 0
T670C 000:480.888 JLINK_WriteReg(R10, 0x00000000)
T670C 000:480.912 - 0.023ms returns 0
T670C 000:480.936 JLINK_WriteReg(R11, 0x00000000)
T670C 000:480.960 - 0.023ms returns 0
T670C 000:480.985 JLINK_WriteReg(R12, 0x00000000)
T670C 000:481.009 - 0.023ms returns 0
T670C 000:481.034 JLINK_WriteReg(R13 (SP), 0x20001000)
T670C 000:481.060 - 0.026ms returns 0
T670C 000:481.081 JLINK_WriteReg(R14, 0x20000001)
T670C 000:481.100 - 0.019ms returns 0
T670C 000:481.120 JLINK_WriteReg(R15 (PC), 0x20000020)
T670C 000:481.140 - 0.019ms returns 0
T670C 000:481.160 JLINK_WriteReg(XPSR, 0x01000000)
T670C 000:481.179 - 0.019ms returns 0
T670C 000:481.199 JLINK_WriteReg(MSP, 0x20001000)
T670C 000:481.219 - 0.019ms returns 0
T670C 000:481.238 JLINK_WriteReg(PSP, 0x20001000)
T670C 000:481.258 - 0.019ms returns 0
T670C 000:481.278 JLINK_WriteReg(CFBP, 0x00000000)
T670C 000:481.297 - 0.018ms returns 0
T670C 000:481.318 JLINK_SetBPEx(Addr = 0x20000000, Type = 0xFFFFFFF2)
T670C 000:481.340 - 0.022ms returns 0x0000000C
T670C 000:481.361 JLINK_Go()
T670C 000:481.387   CPU_ReadMem(4 bytes @ 0xE0001000)
T670C 000:486.184 - 4.823ms 
T670C 000:486.221 JLINK_IsHalted()
T670C 000:490.598   CPU_ReadMem(2 bytes @ 0x20000000)
T670C 000:491.424 - 5.202ms returns TRUE
T670C 000:491.464 JLINK_ReadReg(R15 (PC))
T670C 000:491.489 - 0.025ms returns 0x20000000
T670C 000:491.515 JLINK_ClrBPEx(BPHandle = 0x0000000C)
T670C 000:491.539 - 0.024ms returns 0x00
T670C 000:491.565 JLINK_ReadReg(R0)
T670C 000:491.589 - 0.024ms returns 0x00000001
T670C 000:491.615 JLINK_HasError()
T670C 000:491.641 JLINK_WriteReg(R0, 0x08000A00)
T670C 000:491.666 - 0.025ms returns 0
T670C 000:491.696 JLINK_WriteReg(R1, 0x00000200)
T670C 000:491.720 - 0.024ms returns 0
T670C 000:491.745 JLINK_WriteReg(R2, 0x000000FF)
T670C 000:491.769 - 0.023ms returns 0
T670C 000:491.794 JLINK_WriteReg(R3, 0x00000000)
T670C 000:491.818 - 0.023ms returns 0
T670C 000:491.844 JLINK_WriteReg(R4, 0x00000000)
T670C 000:491.879 - 0.034ms returns 0
T670C 000:491.908 JLINK_WriteReg(R5, 0x00000000)
T670C 000:491.937 - 0.028ms returns 0
T670C 000:491.965 JLINK_WriteReg(R6, 0x00000000)
T670C 000:491.993 - 0.027ms returns 0
T670C 000:492.020 JLINK_WriteReg(R7, 0x00000000)
T670C 000:492.048 - 0.027ms returns 0
T670C 000:492.076 JLINK_WriteReg(R8, 0x00000000)
T670C 000:492.104 - 0.027ms returns 0
T670C 000:492.133 JLINK_WriteReg(R9, 0x20000180)
T670C 000:492.163 - 0.030ms returns 0
T670C 000:492.192 JLINK_WriteReg(R10, 0x00000000)
T670C 000:492.220 - 0.028ms returns 0
T670C 000:492.248 JLINK_WriteReg(R11, 0x00000000)
T670C 000:492.285 - 0.036ms returns 0
T670C 000:492.318 JLINK_WriteReg(R12, 0x00000000)
T670C 000:492.352 - 0.034ms returns 0
T670C 000:492.382 JLINK_WriteReg(R13 (SP), 0x20001000)
T670C 000:492.409 - 0.027ms returns 0
T670C 000:492.438 JLINK_WriteReg(R14, 0x20000001)
T670C 000:492.466 - 0.027ms returns 0
T670C 000:492.496 JLINK_WriteReg(R15 (PC), 0x200000B8)
T670C 000:492.524 - 0.027ms returns 0
T670C 000:492.553 JLINK_WriteReg(XPSR, 0x01000000)
T670C 000:492.580 - 0.027ms returns 0
T670C 000:492.610 JLINK_WriteReg(MSP, 0x20001000)
T670C 000:492.637 - 0.027ms returns 0
T670C 000:492.665 JLINK_WriteReg(PSP, 0x20001000)
T670C 000:492.693 - 0.027ms returns 0
T670C 000:492.721 JLINK_WriteReg(CFBP, 0x00000000)
T670C 000:492.748 - 0.026ms returns 0
T670C 000:492.777 JLINK_SetBPEx(Addr = 0x20000000, Type = 0xFFFFFFF2)
T670C 000:492.806 - 0.028ms returns 0x0000000D
T670C 000:492.833 JLINK_Go()
T670C 000:492.871   CPU_ReadMem(4 bytes @ 0xE0001000)
T670C 000:497.688 - 4.853ms 
T670C 000:497.794 JLINK_IsHalted()
T670C 000:498.658 - 0.863ms returns FALSE
T670C 000:498.697 JLINK_HasError()
T670C 000:499.878 JLINK_IsHalted()
T670C 000:500.787 - 0.909ms returns FALSE
T670C 000:500.817 JLINK_HasError()
T670C 000:502.781 JLINK_IsHalted()
T670C 000:507.102   CPU_ReadMem(2 bytes @ 0x20000000)
T670C 000:507.913 - 5.131ms returns TRUE
T670C 000:507.949 JLINK_ReadReg(R15 (PC))
T670C 000:507.975 - 0.025ms returns 0x20000000
T670C 000:508.000 JLINK_ClrBPEx(BPHandle = 0x0000000D)
T670C 000:508.024 - 0.024ms returns 0x00
T670C 000:508.049 JLINK_ReadReg(R0)
T670C 000:508.074 - 0.025ms returns 0x00000000
T670C 000:508.898 JLINK_HasError()
T670C 000:508.934 JLINK_WriteReg(R0, 0x08000C00)
T670C 000:508.959 - 0.024ms returns 0
T670C 000:508.983 JLINK_WriteReg(R1, 0x00000200)
T670C 000:509.007 - 0.023ms returns 0
T670C 000:509.032 JLINK_WriteReg(R2, 0x000000FF)
T670C 000:509.055 - 0.023ms returns 0
T670C 000:509.080 JLINK_WriteReg(R3, 0x00000000)
T670C 000:509.104 - 0.023ms returns 0
T670C 000:509.129 JLINK_WriteReg(R4, 0x00000000)
T670C 000:509.153 - 0.024ms returns 0
T670C 000:509.178 JLINK_WriteReg(R5, 0x00000000)
T670C 000:509.205 - 0.027ms returns 0
T670C 000:509.230 JLINK_WriteReg(R6, 0x00000000)
T670C 000:509.253 - 0.023ms returns 0
T670C 000:509.278 JLINK_WriteReg(R7, 0x00000000)
T670C 000:509.302 - 0.024ms returns 0
T670C 000:509.328 JLINK_WriteReg(R8, 0x00000000)
T670C 000:509.351 - 0.023ms returns 0
T670C 000:509.376 JLINK_WriteReg(R9, 0x20000180)
T670C 000:509.399 - 0.023ms returns 0
T670C 000:509.424 JLINK_WriteReg(R10, 0x00000000)
T670C 000:509.447 - 0.023ms returns 0
T670C 000:509.472 JLINK_WriteReg(R11, 0x00000000)
T670C 000:509.496 - 0.023ms returns 0
T670C 000:509.520 JLINK_WriteReg(R12, 0x00000000)
T670C 000:509.544 - 0.023ms returns 0
T670C 000:509.570 JLINK_WriteReg(R13 (SP), 0x20001000)
T670C 000:509.594 - 0.024ms returns 0
T670C 000:509.619 JLINK_WriteReg(R14, 0x20000001)
T670C 000:509.643 - 0.023ms returns 0
T670C 000:509.668 JLINK_WriteReg(R15 (PC), 0x20000020)
T670C 000:509.692 - 0.024ms returns 0
T670C 000:509.717 JLINK_WriteReg(XPSR, 0x01000000)
T670C 000:509.740 - 0.023ms returns 0
T670C 000:509.765 JLINK_WriteReg(MSP, 0x20001000)
T670C 000:509.789 - 0.024ms returns 0
T670C 000:509.814 JLINK_WriteReg(PSP, 0x20001000)
T670C 000:509.837 - 0.023ms returns 0
T670C 000:509.864 JLINK_WriteReg(CFBP, 0x00000000)
T670C 000:509.885 - 0.021ms returns 0
T670C 000:509.905 JLINK_SetBPEx(Addr = 0x20000000, Type = 0xFFFFFFF2)
T670C 000:509.925 - 0.020ms returns 0x0000000E
T670C 000:509.945 JLINK_Go()
T670C 000:509.970   CPU_ReadMem(4 bytes @ 0xE0001000)
T670C 000:514.714 - 4.768ms 
T670C 000:514.742 JLINK_IsHalted()
T670C 000:518.857   CPU_ReadMem(2 bytes @ 0x20000000)
T670C 000:519.649 - 4.906ms returns TRUE
T670C 000:519.681 JLINK_ReadReg(R15 (PC))
T670C 000:519.701 - 0.020ms returns 0x20000000
T670C 000:519.722 JLINK_ClrBPEx(BPHandle = 0x0000000E)
T670C 000:519.741 - 0.019ms returns 0x00
T670C 000:519.761 JLINK_ReadReg(R0)
T670C 000:519.790 - 0.028ms returns 0x00000001
T670C 000:519.814 JLINK_HasError()
T670C 000:519.834 JLINK_WriteReg(R0, 0x08000C00)
T670C 000:519.853 - 0.019ms returns 0
T670C 000:519.873 JLINK_WriteReg(R1, 0x00000200)
T670C 000:519.892 - 0.018ms returns 0
T670C 000:519.911 JLINK_WriteReg(R2, 0x000000FF)
T670C 000:519.932 - 0.021ms returns 0
T670C 000:519.951 JLINK_WriteReg(R3, 0x00000000)
T670C 000:519.970 - 0.018ms returns 0
T670C 000:519.989 JLINK_WriteReg(R4, 0x00000000)
T670C 000:520.007 - 0.018ms returns 0
T670C 000:520.027 JLINK_WriteReg(R5, 0x00000000)
T670C 000:520.046 - 0.018ms returns 0
T670C 000:520.065 JLINK_WriteReg(R6, 0x00000000)
T670C 000:520.083 - 0.018ms returns 0
T670C 000:520.102 JLINK_WriteReg(R7, 0x00000000)
T670C 000:520.121 - 0.018ms returns 0
T670C 000:520.140 JLINK_WriteReg(R8, 0x00000000)
T670C 000:520.159 - 0.018ms returns 0
T670C 000:520.178 JLINK_WriteReg(R9, 0x20000180)
T670C 000:520.197 - 0.018ms returns 0
T670C 000:520.216 JLINK_WriteReg(R10, 0x00000000)
T670C 000:520.234 - 0.018ms returns 0
T670C 000:520.254 JLINK_WriteReg(R11, 0x00000000)
T670C 000:520.272 - 0.018ms returns 0
T670C 000:520.291 JLINK_WriteReg(R12, 0x00000000)
T670C 000:520.309 - 0.018ms returns 0
T670C 000:520.328 JLINK_WriteReg(R13 (SP), 0x20001000)
T670C 000:520.347 - 0.018ms returns 0
T670C 000:520.366 JLINK_WriteReg(R14, 0x20000001)
T670C 000:520.384 - 0.018ms returns 0
T670C 000:520.403 JLINK_WriteReg(R15 (PC), 0x200000B8)
T670C 000:520.422 - 0.018ms returns 0
T670C 000:520.441 JLINK_WriteReg(XPSR, 0x01000000)
T670C 000:520.459 - 0.018ms returns 0
T670C 000:520.478 JLINK_WriteReg(MSP, 0x20001000)
T670C 000:520.496 - 0.018ms returns 0
T670C 000:520.516 JLINK_WriteReg(PSP, 0x20001000)
T670C 000:520.534 - 0.018ms returns 0
T670C 000:520.554 JLINK_WriteReg(CFBP, 0x00000000)
T670C 000:520.572 - 0.018ms returns 0
